!Mini-Circuits Laboratory
!S-Parameters
!MODEL: QBA-07+
!Run/Lot/Date Code:MU98180/1420
!DATA FOR:UNIT#2
!Fixture/SN/Due:TB-115;WITH PORT EXTENTION
!Connection:PORT-1-pin<1>;PORT-2-pin<10>;PORT-3-pin<6>;PORT-4-pin<5>
!Created: 10-29-2015 at 12:49:36

# MHZ S DB R 50
!Frequency        S11 dB  S11 DEG   S12 dB  S12 DEG   S13 dB  S13 DEG   S14 dB  S14 DEG
!                 S21 dB  S21 DEG   S22 dB  S22 DEG   S23 dB  S23 DEG   S24 dB  S24 DEG
!                 S31 dB  S31 DEG   S32 dB  S32 DEG   S33 dB  S33 DEG   S34 dB  S34 DEG
!                 S41 dB  S41 DEG   S42 dB  S42 DEG   S43 dB  S43 DEG   S44 dB  S44 DEG
 100.0000     -2.595101E+001 -1.035486E+002 -1.039215E+001  5.998805E+001 -6.668093E-001 -2.823592E+001 -2.927014E+001  4.744475E+001
              -1.039740E+001  5.997924E+001 -2.549753E+001 -1.104272E+002 -2.911178E+001  3.764315E+001 -6.586369E-001 -2.827737E+001
              -6.641783E-001 -2.826427E+001 -2.913665E+001  3.795117E+001 -2.626881E+001 -1.100584E+002 -1.040082E+001  5.993686E+001
              -2.909620E+001  4.700501E+001 -6.620092E-001 -2.828337E+001 -1.040647E+001  5.995731E+001 -2.497761E+001 -1.059189E+002
 101.0000     -2.593562E+001 -1.035543E+002 -1.031887E+001  5.973399E+001 -6.760300E-001 -2.848885E+001 -2.919942E+001  4.676234E+001
              -1.032396E+001  5.972589E+001 -2.543576E+001 -1.107633E+002 -2.904789E+001  3.707228E+001 -6.680837E-001 -2.853474E+001
              -6.740936E-001 -2.853841E+001 -2.904045E+001  3.729607E+001 -2.624254E+001 -1.107274E+002 -1.032815E+001  5.968278E+001
              -2.898420E+001  4.656626E+001 -6.721569E-001 -2.854681E+001 -1.033288E+001  5.971614E+001 -2.491988E+001 -1.066104E+002
 102.0000     -2.593832E+001 -1.037593E+002 -1.024656E+001  5.947605E+001 -6.862410E-001 -2.874755E+001 -2.914062E+001  4.638784E+001
              -1.025100E+001  5.948064E+001 -2.535968E+001 -1.112180E+002 -2.896649E+001  3.644498E+001 -6.776056E-001 -2.879198E+001
              -6.822205E-001 -2.879769E+001 -2.897037E+001  3.657815E+001 -2.619165E+001 -1.111095E+002 -1.025692E+001  5.942563E+001
              -2.895245E+001  4.636884E+001 -6.823187E-001 -2.881189E+001 -1.026198E+001  5.946329E+001 -2.488141E+001 -1.072908E+002
 103.0000     -2.585840E+001 -1.038476E+002 -1.017504E+001  5.922635E+001 -6.946864E-001 -2.900338E+001 -2.906497E+001  4.567675E+001
              -1.017886E+001  5.922557E+001 -2.537010E+001 -1.116204E+002 -2.894896E+001  3.563982E+001 -6.866196E-001 -2.905040E+001
              -6.929509E-001 -2.905467E+001 -2.893557E+001  3.619392E+001 -2.613816E+001 -1.120102E+002 -1.018522E+001  5.917481E+001
              -2.884550E+001  4.560474E+001 -6.901349E-001 -2.907361E+001 -1.018964E+001  5.921500E+001 -2.480561E+001 -1.077274E+002
 104.0000     -2.581903E+001 -1.042056E+002 -1.010368E+001  5.898294E+001 -7.028643E-001 -2.924800E+001 -2.900643E+001  4.535358E+001
              -1.010996E+001  5.897638E+001 -2.522996E+001 -1.125305E+002 -2.887043E+001  3.476309E+001 -6.958299E-001 -2.930665E+001
              -7.027594E-001 -2.931146E+001 -2.890092E+001  3.497321E+001 -2.607885E+001 -1.122627E+002 -1.011451E+001  5.892021E+001
              -2.879894E+001  4.512626E+001 -6.999671E-001 -2.931376E+001 -1.011865E+001  5.897064E+001 -2.475273E+001 -1.080519E+002
 105.0000     -2.581448E+001 -1.042497E+002 -1.003446E+001  5.871879E+001 -7.140210E-001 -2.950813E+001 -2.894850E+001  4.486449E+001
              -1.003881E+001  5.871646E+001 -2.521144E+001 -1.129141E+002 -2.879435E+001  3.403342E+001 -7.053683E-001 -2.956499E+001
              -7.124246E-001 -2.958467E+001 -2.879441E+001  3.466936E+001 -2.596227E+001 -1.126776E+002 -1.004559E+001  5.866751E+001
              -2.870698E+001  4.502122E+001 -7.106546E-001 -2.958179E+001 -1.004985E+001  5.871538E+001 -2.471569E+001 -1.087675E+002
 106.0000     -2.569308E+001 -1.048019E+002 -9.965816E+000  5.847176E+001 -7.231587E-001 -2.977215E+001 -2.884813E+001  4.401064E+001
              -9.969628E+000  5.847204E+001 -2.518728E+001 -1.134104E+002 -2.874636E+001  3.368078E+001 -7.149559E-001 -2.981168E+001
              -7.214941E-001 -2.982202E+001 -2.875793E+001  3.414839E+001 -2.595841E+001 -1.132826E+002 -9.978134E+000  5.842150E+001
              -2.868053E+001  4.387124E+001 -7.197762E-001 -2.984031E+001 -9.980002E+000  5.845958E+001 -2.464919E+001 -1.090295E+002
 107.0000     -2.566100E+001 -1.048823E+002 -9.897149E+000  5.821790E+001 -7.329879E-001 -3.002003E+001 -2.881473E+001  4.375084E+001
              -9.901667E+000  5.822350E+001 -2.514077E+001 -1.138545E+002 -2.868299E+001  3.282496E+001 -7.253937E-001 -3.007146E+001
              -7.314952E-001 -3.007762E+001 -2.867827E+001  3.326223E+001 -2.593452E+001 -1.138599E+002 -9.910064E+000  5.815868E+001
              -2.859315E+001  4.353503E+001 -7.286032E-001 -3.009041E+001 -9.912671E+000  5.822061E+001 -2.460849E+001 -1.096648E+002
 108.0000     -2.558250E+001 -1.056114E+002 -9.829520E+000  5.796834E+001 -7.422828E-001 -3.027691E+001 -2.877660E+001  4.317279E+001
              -9.834137E+000  5.797411E+001 -2.508152E+001 -1.141962E+002 -2.860299E+001  3.235868E+001 -7.346606E-001 -3.033417E+001
              -7.407438E-001 -3.033593E+001 -2.862593E+001  3.268988E+001 -2.586231E+001 -1.140944E+002 -9.843196E+000  5.791821E+001
              -2.856877E+001  4.300467E+001 -7.390053E-001 -3.035069E+001 -9.844065E+000  5.795888E+001 -2.458874E+001 -1.100576E+002
 109.0000     -2.549576E+001 -1.057769E+002 -9.764750E+000  5.772325E+001 -7.523854E-001 -3.053300E+001 -2.867438E+001  4.258190E+001
              -9.767435E+000  5.771029E+001 -2.501598E+001 -1.148838E+002 -2.853087E+001  3.167177E+001 -7.450490E-001 -3.057824E+001
              -7.511697E-001 -3.059917E+001 -2.856937E+001  3.192944E+001 -2.582290E+001 -1.142598E+002 -9.776587E+000  5.766920E+001
              -2.849374E+001  4.244995E+001 -7.490710E-001 -3.059913E+001 -9.778668E+000  5.771651E+001 -2.452732E+001 -1.103676E+002
 110.0000     -2.545091E+001 -1.062450E+002 -9.697984E+000  5.746189E+001 -7.609416E-001 -3.079078E+001 -2.858779E+001  4.228328E+001
              -9.700531E+000  5.747032E+001 -2.498477E+001 -1.151315E+002 -2.846939E+001  3.112623E+001 -7.530990E-001 -3.084936E+001
              -7.600777E-001 -3.084340E+001 -2.849806E+001  3.130647E+001 -2.581076E+001 -1.148418E+002 -9.711764E+000  5.741163E+001
              -2.843756E+001  4.192458E+001 -7.578933E-001 -3.085432E+001 -9.712013E+000  5.746551E+001 -2.452797E+001 -1.106976E+002
 111.0000     -2.530415E+001 -1.064553E+002 -9.633522E+000  5.721817E+001 -7.705393E-001 -3.104273E+001 -2.854781E+001  4.122530E+001
              -9.636910E+000  5.720911E+001 -2.499516E+001 -1.158873E+002 -2.841414E+001  3.028258E+001 -7.629022E-001 -3.109233E+001
              -7.719422E-001 -3.109713E+001 -2.845142E+001  3.088885E+001 -2.574582E+001 -1.152235E+002 -9.645949E+000  5.717171E+001
              -2.833391E+001  4.125860E+001 -7.672037E-001 -3.110754E+001 -9.647075E+000  5.722219E+001 -2.445642E+001 -1.110735E+002
 112.0000     -2.526223E+001 -1.070198E+002 -9.570003E+000  5.696395E+001 -7.817639E-001 -3.130095E+001 -2.845489E+001  4.079253E+001
              -9.572435E+000  5.697269E+001 -2.491780E+001 -1.162507E+002 -2.829745E+001  2.993149E+001 -7.730595E-001 -3.135189E+001
              -7.803863E-001 -3.134068E+001 -2.838789E+001  3.014550E+001 -2.568174E+001 -1.154787E+002 -9.582169E+000  5.691500E+001
              -2.830157E+001  4.060807E+001 -7.768974E-001 -3.136675E+001 -9.582871E+000  5.696798E+001 -2.441853E+001 -1.114816E+002
 113.0000     -2.515564E+001 -1.072227E+002 -9.506065E+000  5.671092E+001 -7.898956E-001 -3.155813E+001 -2.841101E+001  3.998442E+001
              -9.508885E+000  5.671180E+001 -2.488455E+001 -1.167521E+002 -2.830388E+001  2.936769E+001 -7.826008E-001 -3.159140E+001
              -7.925535E-001 -3.160913E+001 -2.832638E+001  2.974442E+001 -2.567137E+001 -1.161065E+002 -9.519511E+000  5.668158E+001
              -2.819261E+001  4.028814E+001 -7.871953E-001 -3.161429E+001 -9.518301E+000  5.671790E+001 -2.438781E+001 -1.118837E+002
 114.0000     -2.509978E+001 -1.075687E+002 -9.443445E+000  5.646698E+001 -7.982594E-001 -3.181586E+001 -2.832854E+001  3.978064E+001
              -9.446188E+000  5.647430E+001 -2.484681E+001 -1.173711E+002 -2.825609E+001  2.878737E+001 -7.930205E-001 -3.185798E+001
              -8.008178E-001 -3.184559E+001 -2.829306E+001  2.895445E+001 -2.564627E+001 -1.164819E+002 -9.457285E+000  5.642350E+001
              -2.815777E+001  3.948442E+001 -7.962761E-001 -3.186128E+001 -9.454790E+000  5.647129E+001 -2.438161E+001 -1.122139E+002
 115.0000     -2.500015E+001 -1.081667E+002 -9.382886E+000  5.621482E+001 -8.076243E-001 -3.206794E+001 -2.826198E+001  3.911102E+001
              -9.382968E+000  5.621559E+001 -2.478548E+001 -1.177041E+002 -2.819520E+001  2.803977E+001 -8.025091E-001 -3.211195E+001
              -8.109907E-001 -3.209869E+001 -2.821029E+001  2.830569E+001 -2.558831E+001 -1.169117E+002 -9.395208E+000  5.618393E+001
              -2.812074E+001  3.894530E+001 -8.077354E-001 -3.211739E+001 -9.392478E+000  5.622076E+001 -2.435111E+001 -1.124679E+002
 116.0000     -2.487158E+001 -1.084899E+002 -9.322359E+000  5.596645E+001 -8.173020E-001 -3.231901E+001 -2.819325E+001  3.866243E+001
              -9.321700E+000  5.596613E+001 -2.478872E+001 -1.181009E+002 -2.815879E+001  2.743033E+001 -8.115879E-001 -3.236550E+001
              -8.217991E-001 -3.234404E+001 -2.813989E+001  2.791257E+001 -2.551844E+001 -1.174708E+002 -9.333951E+000  5.593666E+001
              -2.804296E+001  3.829581E+001 -8.159508E-001 -3.237122E+001 -9.330916E+000  5.597414E+001 -2.431353E+001 -1.127439E+002
 117.0000     -2.480460E+001 -1.086335E+002 -9.261515E+000  5.571808E+001 -8.278912E-001 -3.258202E+001 -2.814943E+001  3.790147E+001
              -9.262021E+000  5.571317E+001 -2.472680E+001 -1.185436E+002 -2.806309E+001  2.713067E+001 -8.216196E-001 -3.261277E+001
              -8.326830E-001 -3.260098E+001 -2.809173E+001  2.713358E+001 -2.549824E+001 -1.174711E+002 -9.274416E+000  5.569563E+001
              -2.794344E+001  3.791417E+001 -8.265409E-001 -3.262066E+001 -9.269522E+000  5.572385E+001 -2.428977E+001 -1.132175E+002
 118.0000     -2.472853E+001 -1.091140E+002 -9.200115E+000  5.547465E+001 -8.364224E-001 -3.283179E+001 -2.808277E+001  3.749771E+001
              -9.200677E+000  5.546817E+001 -2.473028E+001 -1.189692E+002 -2.803903E+001  2.625090E+001 -8.307282E-001 -3.287027E+001
              -8.404822E-001 -3.285078E+001 -2.807995E+001  2.678848E+001 -2.546645E+001 -1.179606E+002 -9.213101E+000  5.545530E+001
              -2.792817E+001  3.739082E+001 -8.351839E-001 -3.287878E+001 -9.208905E+000  5.547862E+001 -2.429369E+001 -1.134109E+002
 119.0000     -2.463134E+001 -1.094582E+002 -9.143629E+000  5.522480E+001 -8.455624E-001 -3.307954E+001 -2.800239E+001  3.680627E+001
              -9.142624E+000  5.521385E+001 -2.466220E+001 -1.195067E+002 -2.798922E+001  2.571769E+001 -8.400664E-001 -3.312202E+001
              -8.522695E-001 -3.309549E+001 -2.796882E+001  2.580024E+001 -2.542394E+001 -1.181943E+002 -9.155150E+000  5.521366E+001
              -2.782864E+001  3.654863E+001 -8.465410E-001 -3.311202E+001 -9.148017E+000  5.523311E+001 -2.426909E+001 -1.136095E+002
 120.0000     -2.454880E+001 -1.098636E+002 -9.083553E+000  5.496902E+001 -8.567655E-001 -3.333458E+001 -2.798397E+001  3.628174E+001
              -9.081529E+000  5.496901E+001 -2.463184E+001 -1.200252E+002 -2.791290E+001  2.525427E+001 -8.499433E-001 -3.337269E+001
              -8.610899E-001 -3.334609E+001 -2.795389E+001  2.553591E+001 -2.538017E+001 -1.187751E+002 -9.094673E+000  5.496642E+001
              -2.780713E+001  3.611924E+001 -8.555586E-001 -3.337040E+001 -9.091530E+000  5.498328E+001 -2.423821E+001 -1.140145E+002
 121.0000     -2.447345E+001 -1.100598E+002 -9.024473E+000  5.473315E+001 -8.660983E-001 -3.359005E+001 -2.789621E+001  3.560476E+001
              -9.024756E+000  5.473236E+001 -2.461815E+001 -1.203690E+002 -2.784148E+001  2.467095E+001 -8.609757E-001 -3.361505E+001
              -8.724362E-001 -3.358651E+001 -2.790842E+001  2.499144E+001 -2.534744E+001 -1.189510E+002 -9.038845E+000  5.472807E+001
              -2.771752E+001  3.547202E+001 -8.642350E-001 -3.361930E+001 -9.031530E+000  5.473167E+001 -2.420674E+001 -1.144510E+002
 122.0000     -2.439448E+001 -1.104658E+002 -8.970324E+000  5.448924E+001 -8.747669E-001 -3.384010E+001 -2.780223E+001  3.504462E+001
              -8.967356E+000  5.447411E+001 -2.458105E+001 -1.209213E+002 -2.781456E+001  2.397138E+001 -8.724424E-001 -3.386927E+001
              -8.831299E-001 -3.384349E+001 -2.783266E+001  2.416321E+001 -2.532841E+001 -1.192918E+002 -8.982905E+000  5.448921E+001
              -2.766602E+001  3.500854E+001 -8.753448E-001 -3.385981E+001 -8.974578E+000  5.449517E+001 -2.416943E+001 -1.145069E+002
 123.0000     -2.429211E+001 -1.108939E+002 -8.913835E+000  5.424390E+001 -8.860682E-001 -3.409172E+001 -2.780571E+001  3.470468E+001
              -8.910996E+000  5.422986E+001 -2.453608E+001 -1.214980E+002 -2.775044E+001  2.349493E+001 -8.795195E-001 -3.412506E+001
              -8.944377E-001 -3.408221E+001 -2.780918E+001  2.357717E+001 -2.530135E+001 -1.196996E+002 -8.925416E+000  5.425003E+001
              -2.758604E+001  3.421067E+001 -8.847074E-001 -3.411086E+001 -8.917727E+000  5.424201E+001 -2.420288E+001 -1.149065E+002
 124.0000     -2.427365E+001 -1.111893E+002 -8.855757E+000  5.400666E+001 -8.964676E-001 -3.433597E+001 -2.777028E+001  3.384879E+001
              -8.854311E+000  5.399012E+001 -2.452913E+001 -1.219842E+002 -2.767588E+001  2.302409E+001 -8.910180E-001 -3.436877E+001
              -9.034082E-001 -3.432766E+001 -2.781518E+001  2.294083E+001 -2.524870E+001 -1.200808E+002 -8.869913E+000  5.400581E+001
              -2.756884E+001  3.369456E+001 -8.933915E-001 -3.435445E+001 -8.861880E+000  5.399857E+001 -2.413766E+001 -1.152816E+002
 125.0000     -2.422117E+001 -1.115770E+002 -8.801773E+000  5.375225E+001 -9.064712E-001 -3.458706E+001 -2.770737E+001  3.329158E+001
              -8.799474E+000  5.373814E+001 -2.451842E+001 -1.223036E+002 -2.762819E+001  2.230210E+001 -9.008518E-001 -3.460781E+001
              -9.136119E-001 -3.458160E+001 -2.771968E+001  2.263052E+001 -2.522058E+001 -1.204788E+002 -8.813619E+000  5.376443E+001
              -2.748343E+001  3.343199E+001 -9.042816E-001 -3.461063E+001 -8.806306E+000  5.375552E+001 -2.410326E+001 -1.156798E+002
 126.0000     -2.415077E+001 -1.120243E+002 -8.745401E+000  5.351332E+001 -9.154252E-001 -3.483305E+001 -2.763869E+001  3.287316E+001
              -8.744410E+000  5.350145E+001 -2.446527E+001 -1.225168E+002 -2.763061E+001  2.166196E+001 -9.108468E-001 -3.486306E+001
              -9.235247E-001 -3.481674E+001 -2.767931E+001  2.206377E+001 -2.520388E+001 -1.209398E+002 -8.759772E+000  5.351669E+001
              -2.746251E+001  3.240696E+001 -9.147378E-001 -3.485943E+001 -8.750070E+000  5.352156E+001 -2.409226E+001 -1.159376E+002
 127.0000     -2.407719E+001 -1.122942E+002 -8.692272E+000  5.327424E+001 -9.267971E-001 -3.508332E+001 -2.759074E+001  3.230815E+001
              -8.690589E+000  5.325647E+001 -2.445485E+001 -1.231218E+002 -2.754092E+001  2.120919E+001 -9.210024E-001 -3.511226E+001
              -9.353886E-001 -3.506517E+001 -2.763197E+001  2.150478E+001 -2.517318E+001 -1.213199E+002 -8.706446E+000  5.327831E+001
              -2.740115E+001  3.211032E+001 -9.256030E-001 -3.510657E+001 -8.696801E+000  5.326958E+001 -2.407636E+001 -1.161482E+002
 128.0000     -2.405523E+001 -1.129516E+002 -8.639974E+000  5.302842E+001 -9.368927E-001 -3.532343E+001 -2.757069E+001  3.162580E+001
              -8.636682E+000  5.301614E+001 -2.441284E+001 -1.235316E+002 -2.750530E+001  2.051840E+001 -9.310936E-001 -3.534148E+001
              -9.445141E-001 -3.530695E+001 -2.757252E+001  2.058035E+001 -2.510825E+001 -1.218300E+002 -8.652325E+000  5.304511E+001
              -2.738920E+001  3.160548E+001 -9.358772E-001 -3.534188E+001 -8.643274E+000  5.302674E+001 -2.400492E+001 -1.166347E+002
 129.0000     -2.400270E+001 -1.134236E+002 -8.586744E+000  5.279056E+001 -9.463587E-001 -3.556767E+001 -2.753966E+001  3.102494E+001
              -8.584053E+000  5.277329E+001 -2.434606E+001 -1.239201E+002 -2.749395E+001  1.971898E+001 -9.411088E-001 -3.559887E+001
              -9.559493E-001 -3.555123E+001 -2.751792E+001  1.994542E+001 -2.512401E+001 -1.225836E+002 -8.599194E+000  5.280180E+001
              -2.734921E+001  3.098685E+001 -9.470366E-001 -3.558025E+001 -8.590233E+000  5.278300E+001 -2.399944E+001 -1.169699E+002
 130.0000     -2.398807E+001 -1.140463E+002 -8.534771E+000  5.255285E+001 -9.568470E-001 -3.582581E+001 -2.748118E+001  3.057010E+001
              -8.531224E+000  5.253816E+001 -2.434125E+001 -1.242713E+002 -2.743169E+001  1.939375E+001 -9.539989E-001 -3.584814E+001
              -9.641584E-001 -3.578287E+001 -2.745962E+001  1.935309E+001 -2.509761E+001 -1.226003E+002 -8.546485E+000  5.256110E+001
              -2.735137E+001  3.027067E+001 -9.579414E-001 -3.583276E+001 -8.536613E+000  5.253879E+001 -2.393576E+001 -1.170726E+002
 131.0000     -2.395279E+001 -1.143302E+002 -8.482279E+000  5.233600E+001 -9.688079E-001 -3.605789E+001 -2.746095E+001  2.997026E+001
              -8.481165E+000  5.229283E+001 -2.431241E+001 -1.246794E+002 -2.738078E+001  1.859852E+001 -9.625877E-001 -3.609083E+001
              -9.759580E-001 -3.603659E+001 -2.749326E+001  1.854041E+001 -2.505208E+001 -1.232368E+002 -8.494454E+000  5.232801E+001
              -2.727060E+001  2.985332E+001 -9.671369E-001 -3.607418E+001 -8.486135E+000  5.230301E+001 -2.390506E+001 -1.174076E+002
 132.0000     -2.393259E+001 -1.147770E+002 -8.432842E+000  5.207925E+001 -9.782883E-001 -3.631080E+001 -2.739502E+001  2.926658E+001
              -8.429329E+000  5.205744E+001 -2.428654E+001 -1.250277E+002 -2.737524E+001  1.810024E+001 -9.742398E-001 -3.633031E+001
              -9.852752E-001 -3.627915E+001 -2.738760E+001  1.805371E+001 -2.503681E+001 -1.236429E+002 -8.443890E+000  5.208139E+001
              -2.725269E+001  2.909625E+001 -9.780562E-001 -3.632192E+001 -8.434861E+000  5.205351E+001 -2.385203E+001 -1.175921E+002
 133.0000     -2.391470E+001 -1.151505E+002 -8.381565E+000  5.184030E+001 -9.889959E-001 -3.654683E+001 -2.737899E+001  2.852125E+001
              -8.379874E+000  5.180746E+001 -2.423595E+001 -1.254839E+002 -2.732267E+001  1.733864E+001 -9.841700E-001 -3.656517E+001
              -9.971303E-001 -3.652798E+001 -2.735863E+001  1.727098E+001 -2.500487E+001 -1.241863E+002 -8.393428E+000  5.184460E+001
              -2.717962E+001  2.892549E+001 -9.885035E-001 -3.655886E+001 -8.384645E+000  5.182195E+001 -2.379411E+001 -1.178869E+002
 134.0000     -2.387478E+001 -1.157035E+002 -8.331123E+000  5.160779E+001 -9.996926E-001 -3.679235E+001 -2.740609E+001  2.804861E+001
              -8.330397E+000  5.158216E+001 -2.419092E+001 -1.258184E+002 -2.727082E+001  1.676598E+001 -9.937430E-001 -3.681584E+001
              -1.007045E+000 -3.677240E+001 -2.731356E+001  1.669381E+001 -2.496168E+001 -1.247690E+002 -8.341223E+000  5.160767E+001
              -2.717135E+001  2.809138E+001 -9.989524E-001 -3.680260E+001 -8.334847E+000  5.158045E+001 -2.377979E+001 -1.183150E+002
 135.0000     -2.387492E+001 -1.163641E+002 -8.280625E+000  5.136364E+001 -1.009507E+000 -3.703375E+001 -2.734123E+001  2.740601E+001
              -8.280600E+000  5.134445E+001 -2.418771E+001 -1.261646E+002 -2.726198E+001  1.601961E+001 -1.005951E+000 -3.706205E+001
              -1.016101E+000 -3.700928E+001 -2.727676E+001  1.625111E+001 -2.494838E+001 -1.253379E+002 -8.291918E+000  5.137461E+001
              -2.715788E+001  2.751494E+001 -1.009257E+000 -3.705684E+001 -8.285452E+000  5.134251E+001 -2.371486E+001 -1.183400E+002
