!Mini-Circuits Laboratory
!S-Parameters
!MODEL: QBA-07+
!Run/Lot/Date Code:MU98180/1420
!DATA FOR:UNIT#1
!Fixture/SN/Due:TB-115;WITH PORT EXTENTION
!Connection:PORT-1-pin<1>;PORT-2-pin<10>;PORT-3-pin<6>;PORT-4-pin<5>
!Created: 10-29-2015 at 12:49:14

# MHZ S DB R 50
!Frequency        S11 dB  S11 DEG   S12 dB  S12 DEG   S13 dB  S13 DEG   S14 dB  S14 DEG
!                 S21 dB  S21 DEG   S22 dB  S22 DEG   S23 dB  S23 DEG   S24 dB  S24 DEG
!                 S31 dB  S31 DEG   S32 dB  S32 DEG   S33 dB  S33 DEG   S34 dB  S34 DEG
!                 S41 dB  S41 DEG   S42 dB  S42 DEG   S43 dB  S43 DEG   S44 dB  S44 DEG
 100.0000     -2.591709E+001 -1.042861E+002 -1.044871E+001  6.002954E+001 -6.631336E-001 -2.818806E+001 -2.940051E+001  4.670521E+001
              -1.045606E+001  6.002073E+001 -2.563055E+001 -1.093197E+002 -2.910993E+001  3.884191E+001 -6.487770E-001 -2.821056E+001
              -6.600220E-001 -2.821282E+001 -2.913844E+001  3.920843E+001 -2.592411E+001 -1.092658E+002 -1.045706E+001  6.001703E+001
              -2.922195E+001  4.626244E+001 -6.509578E-001 -2.822094E+001 -1.046372E+001  6.004228E+001 -2.531972E+001 -1.064299E+002
 101.0000     -2.589198E+001 -1.040456E+002 -1.037677E+001  5.977641E+001 -6.718051E-001 -2.843704E+001 -2.933878E+001  4.595771E+001
              -1.038157E+001  5.977003E+001 -2.555661E+001 -1.098365E+002 -2.905370E+001  3.837489E+001 -6.579320E-001 -2.846461E+001
              -6.689327E-001 -2.848410E+001 -2.903729E+001  3.853970E+001 -2.592924E+001 -1.098674E+002 -1.038426E+001  5.976575E+001
              -2.911592E+001  4.581770E+001 -6.616739E-001 -2.847984E+001 -1.038951E+001  5.980015E+001 -2.527002E+001 -1.070401E+002
 102.0000     -2.587860E+001 -1.044531E+002 -1.030428E+001  5.951381E+001 -6.814839E-001 -2.870060E+001 -2.927579E+001  4.560632E+001
              -1.030728E+001  5.951697E+001 -2.546797E+001 -1.101728E+002 -2.896305E+001  3.771022E+001 -6.665515E-001 -2.872524E+001
              -6.774002E-001 -2.875010E+001 -2.896900E+001  3.782988E+001 -2.585296E+001 -1.101509E+002 -1.031306E+001  5.951167E+001
              -2.908545E+001  4.558316E+001 -6.711075E-001 -2.874786E+001 -1.031725E+001  5.954290E+001 -2.523173E+001 -1.077665E+002
 103.0000     -2.580552E+001 -1.044952E+002 -1.023101E+001  5.927054E+001 -6.894439E-001 -2.895536E+001 -2.919476E+001  4.486263E+001
              -1.023641E+001  5.927202E+001 -2.550644E+001 -1.105717E+002 -2.894513E+001  3.697882E+001 -6.759785E-001 -2.898353E+001
              -6.879748E-001 -2.900113E+001 -2.893289E+001  3.752040E+001 -2.580991E+001 -1.108926E+002 -1.024189E+001  5.925867E+001
              -2.898751E+001  4.488032E+001 -6.785221E-001 -2.900456E+001 -1.024554E+001  5.929790E+001 -2.514944E+001 -1.081782E+002
 104.0000     -2.577435E+001 -1.047625E+002 -1.016127E+001  5.902281E+001 -6.981850E-001 -2.919919E+001 -2.914222E+001  4.456496E+001
              -1.016716E+001  5.901919E+001 -2.535774E+001 -1.116111E+002 -2.887020E+001  3.610199E+001 -6.845614E-001 -2.923792E+001
              -6.975721E-001 -2.926398E+001 -2.889721E+001  3.626789E+001 -2.573164E+001 -1.112873E+002 -1.017031E+001  5.900357E+001
              -2.893132E+001  4.437055E+001 -6.891465E-001 -2.924694E+001 -1.017441E+001  5.905690E+001 -2.510367E+001 -1.085154E+002
 105.0000     -2.576215E+001 -1.049931E+002 -1.009161E+001  5.875632E+001 -7.092219E-001 -2.945699E+001 -2.908492E+001  4.405626E+001
              -1.009575E+001  5.876566E+001 -2.533018E+001 -1.118100E+002 -2.879235E+001  3.534127E+001 -6.942059E-001 -2.949887E+001
              -7.072935E-001 -2.953182E+001 -2.879181E+001  3.600163E+001 -2.562668E+001 -1.117551E+002 -1.010116E+001  5.875682E+001
              -2.883246E+001  4.425538E+001 -6.990193E-001 -2.951749E+001 -1.010509E+001  5.879869E+001 -2.505509E+001 -1.092542E+002
 106.0000     -2.562451E+001 -1.054601E+002 -1.002166E+001  5.851046E+001 -7.176460E-001 -2.971913E+001 -2.897808E+001  4.319867E+001
              -1.002638E+001  5.851172E+001 -2.533223E+001 -1.123298E+002 -2.875244E+001  3.500939E+001 -7.033215E-001 -2.974571E+001
              -7.161350E-001 -2.977183E+001 -2.875572E+001  3.549150E+001 -2.563046E+001 -1.122570E+002 -1.003394E+001  5.849926E+001
              -2.880944E+001  4.311015E+001 -7.076316E-001 -2.977425E+001 -1.003502E+001  5.854872E+001 -2.498157E+001 -1.095903E+002
 107.0000     -2.560026E+001 -1.055733E+002 -9.953308E+000  5.826452E+001 -7.278152E-001 -2.997228E+001 -2.894619E+001  4.302158E+001
              -9.958530E+000  5.826317E+001 -2.525247E+001 -1.128419E+002 -2.868773E+001  3.415034E+001 -7.134035E-001 -3.000331E+001
              -7.265599E-001 -3.002776E+001 -2.868044E+001  3.454126E+001 -2.557620E+001 -1.126860E+002 -9.965865E+000  5.825117E+001
              -2.873087E+001  4.273740E+001 -7.165235E-001 -3.002505E+001 -9.968265E+000  5.829984E+001 -2.495829E+001 -1.101521E+002
 108.0000     -2.553904E+001 -1.062841E+002 -9.886445E+000  5.801347E+001 -7.374097E-001 -3.022621E+001 -2.890457E+001  4.236265E+001
              -9.890006E+000  5.802064E+001 -2.521082E+001 -1.131606E+002 -2.860418E+001  3.369911E+001 -7.215141E-001 -3.026475E+001
              -7.344010E-001 -3.027904E+001 -2.862433E+001  3.406665E+001 -2.551896E+001 -1.131482E+002 -9.896840E+000  5.800413E+001
              -2.869873E+001  4.224744E+001 -7.265942E-001 -3.028113E+001 -9.899763E+000  5.804465E+001 -2.494954E+001 -1.104119E+002
 109.0000     -2.545855E+001 -1.065672E+002 -9.820793E+000  5.776410E+001 -7.464617E-001 -3.048354E+001 -2.880622E+001  4.173847E+001
              -9.823660E+000  5.776200E+001 -2.514207E+001 -1.138842E+002 -2.853052E+001  3.303799E+001 -7.332538E-001 -3.051081E+001
              -7.452859E-001 -3.054182E+001 -2.857045E+001  3.327265E+001 -2.546984E+001 -1.131370E+002 -9.832978E+000  5.775374E+001
              -2.863193E+001  4.165610E+001 -7.364075E-001 -3.053051E+001 -9.833677E+000  5.780104E+001 -2.486656E+001 -1.108514E+002
 110.0000     -2.539095E+001 -1.069584E+002 -9.754628E+000  5.750858E+001 -7.556191E-001 -3.073744E+001 -2.872926E+001  4.145641E+001
              -9.757554E+000  5.751545E+001 -2.510959E+001 -1.141582E+002 -2.847021E+001  3.253432E+001 -7.408395E-001 -3.078207E+001
              -7.547642E-001 -3.079056E+001 -2.850207E+001  3.267877E+001 -2.546729E+001 -1.138197E+002 -9.766174E+000  5.749908E+001
              -2.857869E+001  4.112667E+001 -7.451658E-001 -3.078945E+001 -9.766691E+000  5.755465E+001 -2.487384E+001 -1.111745E+002
 111.0000     -2.524129E+001 -1.072257E+002 -9.689344E+000  5.725893E+001 -7.646924E-001 -3.098896E+001 -2.868039E+001  4.040979E+001
              -9.693521E+000  5.725294E+001 -2.511826E+001 -1.148022E+002 -2.841510E+001  3.165477E+001 -7.508700E-001 -3.102502E+001
              -7.666104E-001 -3.104178E+001 -2.844971E+001  3.228461E+001 -2.538927E+001 -1.142026E+002 -9.701335E+000  5.726340E+001
              -2.847362E+001  4.042890E+001 -7.544066E-001 -3.104300E+001 -9.701677E+000  5.731048E+001 -2.481140E+001 -1.116480E+002
 112.0000     -2.520255E+001 -1.076032E+002 -9.626135E+000  5.700919E+001 -7.763248E-001 -3.124471E+001 -2.859362E+001  3.999910E+001
              -9.627830E+000  5.701197E+001 -2.503297E+001 -1.152568E+002 -2.830165E+001  3.128429E+001 -7.604474E-001 -3.128160E+001
              -7.740197E-001 -3.128910E+001 -2.839396E+001  3.154120E+001 -2.532627E+001 -1.144669E+002 -9.638083E+000  5.700748E+001
              -2.844068E+001  3.977267E+001 -7.648686E-001 -3.129618E+001 -9.638547E+000  5.706002E+001 -2.477568E+001 -1.120728E+002
 113.0000     -2.510829E+001 -1.078582E+002 -9.562233E+000  5.675424E+001 -7.839011E-001 -3.150143E+001 -2.854856E+001  3.912015E+001
              -9.564898E+000  5.674916E+001 -2.500241E+001 -1.157168E+002 -2.830919E+001  3.075032E+001 -7.700039E-001 -3.152143E+001
              -7.856510E-001 -3.155386E+001 -2.833032E+001  3.115564E+001 -2.531703E+001 -1.149599E+002 -9.575583E+000  5.677748E+001
              -2.832875E+001  3.946436E+001 -7.743071E-001 -3.154861E+001 -9.573235E+000  5.680743E+001 -2.473165E+001 -1.126010E+002
 114.0000     -2.502896E+001 -1.082598E+002 -9.499046E+000  5.650842E+001 -7.924064E-001 -3.176331E+001 -2.846031E+001  3.893091E+001
              -9.502237E+000  5.651037E+001 -2.497769E+001 -1.164208E+002 -2.825901E+001  3.016167E+001 -7.794808E-001 -3.178909E+001
              -7.949871E-001 -3.179326E+001 -2.829109E+001  3.032202E+001 -2.528446E+001 -1.153186E+002 -9.512599E+000  5.651716E+001
              -2.830037E+001  3.867825E+001 -7.829176E-001 -3.179410E+001 -9.510931E+000  5.655996E+001 -2.473629E+001 -1.127432E+002
 115.0000     -2.495318E+001 -1.088256E+002 -9.438873E+000  5.626449E+001 -8.020576E-001 -3.201286E+001 -2.840206E+001  3.825712E+001
              -9.438070E+000  5.625545E+001 -2.491760E+001 -1.167236E+002 -2.820566E+001  2.946157E+001 -7.888777E-001 -3.204348E+001
              -8.042405E-001 -3.204129E+001 -2.821348E+001  2.971831E+001 -2.522471E+001 -1.158515E+002 -9.450228E+000  5.627322E+001
              -2.826041E+001  3.812432E+001 -7.943870E-001 -3.204598E+001 -9.448022E+000  5.631573E+001 -2.472328E+001 -1.131067E+002
 116.0000     -2.481960E+001 -1.091146E+002 -9.377138E+000  5.600736E+001 -8.109744E-001 -3.226461E+001 -2.833512E+001  3.780297E+001
              -9.376035E+000  5.601027E+001 -2.491488E+001 -1.169963E+002 -2.816127E+001  2.878878E+001 -7.978886E-001 -3.230063E+001
              -8.143885E-001 -3.228994E+001 -2.814430E+001  2.931885E+001 -2.516739E+001 -1.163696E+002 -9.388873E+000  5.602436E+001
              -2.817841E+001  3.749643E+001 -8.023033E-001 -3.230693E+001 -9.385994E+000  5.606541E+001 -2.468488E+001 -1.133134E+002
 117.0000     -2.476102E+001 -1.093893E+002 -9.316920E+000  5.575544E+001 -8.214356E-001 -3.252121E+001 -2.828778E+001  3.705664E+001
              -9.316667E+000  5.576071E+001 -2.483965E+001 -1.174778E+002 -2.807171E+001  2.851245E+001 -8.070680E-001 -3.254440E+001
              -8.253838E-001 -3.254413E+001 -2.809447E+001  2.858995E+001 -2.514241E+001 -1.163973E+002 -9.328184E+000  5.578981E+001
              -2.808235E+001  3.706985E+001 -8.132949E-001 -3.255513E+001 -9.324590E+000  5.581353E+001 -2.467073E+001 -1.137649E+002
 118.0000     -2.467974E+001 -1.098408E+002 -9.255168E+000  5.552146E+001 -8.294257E-001 -3.277522E+001 -2.822114E+001  3.661534E+001
              -9.255450E+000  5.551159E+001 -2.485923E+001 -1.180065E+002 -2.804766E+001  2.773846E+001 -8.172541E-001 -3.279929E+001
              -8.337870E-001 -3.279548E+001 -2.808063E+001  2.825829E+001 -2.510995E+001 -1.168021E+002 -9.268154E+000  5.554512E+001
              -2.806831E+001  3.651902E+001 -8.206738E-001 -3.280671E+001 -9.263082E+000  5.557338E+001 -2.466273E+001 -1.139594E+002
 119.0000     -2.456791E+001 -1.101547E+002 -9.198413E+000  5.527221E+001 -8.401707E-001 -3.302435E+001 -2.813879E+001  3.594261E+001
              -9.196544E+000  5.526280E+001 -2.479499E+001 -1.185417E+002 -2.799542E+001  2.714260E+001 -8.265145E-001 -3.305027E+001
              -8.450286E-001 -3.303850E+001 -2.797213E+001  2.725770E+001 -2.503114E+001 -1.170203E+002 -9.209435E+000  5.530776E+001
              -2.796667E+001  3.566592E+001 -8.319307E-001 -3.304155E+001 -9.202864E+000  5.532600E+001 -2.464920E+001 -1.141868E+002
 120.0000     -2.449423E+001 -1.105990E+002 -9.138289E+000  5.501230E+001 -8.504841E-001 -3.327985E+001 -2.812565E+001  3.543553E+001
              -9.135642E+000  5.501009E+001 -2.476789E+001 -1.190425E+002 -2.792256E+001  2.666407E+001 -8.358039E-001 -3.330605E+001
              -8.538911E-001 -3.328935E+001 -2.795664E+001  2.699795E+001 -2.502620E+001 -1.175094E+002 -9.149479E+000  5.505375E+001
              -2.794894E+001  3.521147E+001 -8.409659E-001 -3.330080E+001 -9.145501E+000  5.507508E+001 -2.460192E+001 -1.145746E+002
 121.0000     -2.441417E+001 -1.107512E+002 -9.079404E+000  5.477295E+001 -8.594195E-001 -3.353019E+001 -2.804139E+001  3.472344E+001
              -9.078269E+000  5.477274E+001 -2.473413E+001 -1.192452E+002 -2.785161E+001  2.611487E+001 -8.459591E-001 -3.354829E+001
              -8.652602E-001 -3.353259E+001 -2.791108E+001  2.644593E+001 -2.498491E+001 -1.177155E+002 -9.093357E+000  5.482019E+001
              -2.785176E+001  3.459029E+001 -8.498750E-001 -3.355614E+001 -9.086036E+000  5.482910E+001 -2.459673E+001 -1.149523E+002
 122.0000     -2.434967E+001 -1.112035E+002 -9.024731E+000  5.453884E+001 -8.674912E-001 -3.378316E+001 -2.794187E+001  3.417471E+001
              -9.020895E+000  5.451999E+001 -2.470258E+001 -1.199033E+002 -2.782716E+001  2.540121E+001 -8.573643E-001 -3.380559E+001
              -8.747561E-001 -3.378271E+001 -2.783648E+001  2.562681E+001 -2.496872E+001 -1.180881E+002 -9.036915E+000  5.457866E+001
              -2.780671E+001  3.414550E+001 -8.603008E-001 -3.379488E+001 -9.028160E+000  5.458736E+001 -2.455009E+001 -1.150638E+002
 123.0000     -2.424404E+001 -1.117115E+002 -8.967859E+000  5.428577E+001 -8.789616E-001 -3.403325E+001 -2.795029E+001  3.383022E+001
              -8.966082E+000  5.427522E+001 -2.466288E+001 -1.203936E+002 -2.775544E+001  2.494901E+001 -8.646364E-001 -3.405412E+001
              -8.866236E-001 -3.401774E+001 -2.781769E+001  2.506452E+001 -2.491912E+001 -1.185341E+002 -8.979231E+000  5.434206E+001
              -2.772787E+001  3.334011E+001 -8.692749E-001 -3.404556E+001 -8.971731E+000  5.433707E+001 -2.457207E+001 -1.155617E+002
 124.0000     -2.420800E+001 -1.119764E+002 -8.910208E+000  5.404931E+001 -8.892636E-001 -3.427732E+001 -2.791554E+001  3.297372E+001
              -8.908172E+000  5.403163E+001 -2.463861E+001 -1.210570E+002 -2.768337E+001  2.449473E+001 -8.754721E-001 -3.430041E+001
              -8.957804E-001 -3.426841E+001 -2.782638E+001  2.440934E+001 -2.488441E+001 -1.188876E+002 -8.924204E+000  5.410033E+001
              -2.770697E+001  3.283863E+001 -8.780380E-001 -3.428627E+001 -8.915902E+000  5.409522E+001 -2.451854E+001 -1.158491E+002
 125.0000     -2.416229E+001 -1.123339E+002 -8.856107E+000  5.379512E+001 -8.981449E-001 -3.452766E+001 -2.785464E+001  3.237460E+001
              -8.853201E+000  5.378362E+001 -2.463440E+001 -1.210951E+002 -2.763981E+001  2.381400E+001 -8.857801E-001 -3.453993E+001
              -9.059623E-001 -3.451987E+001 -2.772938E+001  2.412311E+001 -2.485454E+001 -1.192572E+002 -8.868101E+000  5.386308E+001
              -2.762614E+001  3.252576E+001 -8.893895E-001 -3.454528E+001 -8.859805E+000  5.384539E+001 -2.447932E+001 -1.162589E+002
 126.0000     -2.408873E+001 -1.128211E+002 -8.799221E+000  5.355564E+001 -9.078521E-001 -3.477567E+001 -2.778383E+001  3.198960E+001
              -8.798005E+000  5.355104E+001 -2.457007E+001 -1.214625E+002 -2.763496E+001  2.318440E+001 -8.953797E-001 -3.479586E+001
              -9.153830E-001 -3.475228E+001 -2.768657E+001  2.357227E+001 -2.482516E+001 -1.196964E+002 -8.813218E+000  5.361427E+001
              -2.760461E+001  3.153306E+001 -8.996120E-001 -3.479052E+001 -8.803580E+000  5.361547E+001 -2.447692E+001 -1.164862E+002
 127.0000     -2.401483E+001 -1.132300E+002 -8.746606E+000  5.331332E+001 -9.190848E-001 -3.502161E+001 -2.773409E+001  3.141673E+001
              -8.743970E+000  5.330090E+001 -2.457767E+001 -1.219406E+002 -2.755114E+001  2.270747E+001 -9.045578E-001 -3.504788E+001
              -9.271380E-001 -3.500484E+001 -2.764291E+001  2.302197E+001 -2.478995E+001 -1.200687E+002 -8.759254E+000  5.337634E+001
              -2.754794E+001  3.120981E+001 -9.098898E-001 -3.504117E+001 -8.750189E+000  5.336295E+001 -2.448283E+001 -1.167376E+002
 128.0000     -2.399400E+001 -1.137283E+002 -8.694119E+000  5.307391E+001 -9.290653E-001 -3.526411E+001 -2.771312E+001  3.072278E+001
              -8.689718E+000  5.306331E+001 -2.452543E+001 -1.226264E+002 -2.751373E+001  2.204673E+001 -9.148939E-001 -3.527717E+001
              -9.360971E-001 -3.524295E+001 -2.757439E+001  2.210636E+001 -2.473581E+001 -1.205959E+002 -8.705512E+000  5.314288E+001
              -2.753036E+001  3.067678E+001 -9.198796E-001 -3.527293E+001 -8.696739E+000  5.312395E+001 -2.439731E+001 -1.172562E+002
 129.0000     -2.393880E+001 -1.142108E+002 -8.640523E+000  5.282993E+001 -9.387107E-001 -3.550813E+001 -2.768550E+001  3.011619E+001
              -8.637713E+000  5.282479E+001 -2.446737E+001 -1.229248E+002 -2.750958E+001  2.122966E+001 -9.253430E-001 -3.553511E+001
              -9.474891E-001 -3.548928E+001 -2.752611E+001  2.145834E+001 -2.473120E+001 -1.212260E+002 -8.653036E+000  5.289635E+001
              -2.749336E+001  3.012509E+001 -9.302471E-001 -3.551447E+001 -8.644485E+000  5.288247E+001 -2.438582E+001 -1.174712E+002
 130.0000     -2.391294E+001 -1.147999E+002 -8.587996E+000  5.259687E+001 -9.493255E-001 -3.576511E+001 -2.762065E+001  2.967566E+001
              -8.585088E+000  5.258183E+001 -2.445613E+001 -1.232377E+002 -2.744260E+001  2.095176E+001 -9.370118E-001 -3.578320E+001
              -9.551933E-001 -3.572379E+001 -2.747292E+001  2.094831E+001 -2.471458E+001 -1.212829E+002 -8.600217E+000  5.265889E+001
              -2.749925E+001  2.939695E+001 -9.413090E-001 -3.576437E+001 -8.591085E+000  5.263823E+001 -2.432508E+001 -1.176987E+002
 131.0000     -2.389552E+001 -1.151710E+002 -8.535510E+000  5.237453E+001 -9.603118E-001 -3.599542E+001 -2.760785E+001  2.904446E+001
              -8.534253E+000  5.233387E+001 -2.441366E+001 -1.237209E+002 -2.739345E+001  2.015960E+001 -9.459057E-001 -3.602398E+001
              -9.671397E-001 -3.597316E+001 -2.750319E+001  2.010128E+001 -2.466907E+001 -1.219154E+002 -8.548274E+000  5.241983E+001
              -2.741173E+001  2.894185E+001 -9.505848E-001 -3.600495E+001 -8.539883E+000  5.240606E+001 -2.430091E+001 -1.179873E+002
 132.0000     -2.386970E+001 -1.155749E+002 -8.484750E+000  5.212192E+001 -9.705968E-001 -3.624079E+001 -2.754085E+001  2.833093E+001
              -8.482663E+000  5.210464E+001 -2.439349E+001 -1.239813E+002 -2.738662E+001  1.968993E+001 -9.582306E-001 -3.626424E+001
              -9.760458E-001 -3.621398E+001 -2.739701E+001  1.960435E+001 -2.462451E+001 -1.223004E+002 -8.498175E+000  5.217972E+001
              -2.739729E+001  2.818990E+001 -9.604559E-001 -3.625497E+001 -8.488638E+000  5.216025E+001 -2.424217E+001 -1.181592E+002
 133.0000     -2.384641E+001 -1.160204E+002 -8.434608E+000  5.188295E+001 -9.805106E-001 -3.648161E+001 -2.752391E+001  2.762012E+001
              -8.432393E+000  5.185194E+001 -2.434004E+001 -1.244914E+002 -2.733527E+001  1.893904E+001 -9.676642E-001 -3.649805E+001
              -9.882386E-001 -3.646344E+001 -2.737024E+001  1.881138E+001 -2.461363E+001 -1.228209E+002 -8.447063E+000  5.195468E+001
              -2.732754E+001  2.802986E+001 -9.715846E-001 -3.649179E+001 -8.437900E+000  5.192494E+001 -2.417957E+001 -1.185454E+002
 134.0000     -2.381759E+001 -1.165578E+002 -8.384542E+000  5.164496E+001 -9.913082E-001 -3.672866E+001 -2.755229E+001  2.711538E+001
              -8.382596E+000  5.162551E+001 -2.431038E+001 -1.247451E+002 -2.729002E+001  1.835184E+001 -9.767545E-001 -3.675074E+001
              -9.976852E-001 -3.670492E+001 -2.732948E+001  1.825986E+001 -2.457658E+001 -1.233761E+002 -8.394160E+000  5.170686E+001
              -2.732215E+001  2.717577E+001 -9.818074E-001 -3.673746E+001 -8.388616E+000  5.167511E+001 -2.416882E+001 -1.188736E+002
 135.0000     -2.382542E+001 -1.171786E+002 -8.334244E+000  5.140079E+001 -1.000464E+000 -3.696967E+001 -2.749035E+001  2.645768E+001
              -8.333345E+000  5.138528E+001 -2.430423E+001 -1.251598E+002 -2.727927E+001  1.758543E+001 -9.890161E-001 -3.699572E+001
              -1.006775E+000 -3.694793E+001 -2.729263E+001  1.782845E+001 -2.457433E+001 -1.239170E+002 -8.345940E+000  5.147909E+001
              -2.730318E+001  2.659585E+001 -9.921212E-001 -3.699540E+001 -8.339437E+000  5.144171E+001 -2.410180E+001 -1.189256E+002
